Open On-Chip Debugger 0.12.0+dev-snapshot (2026-02-16-16:07)
Licensed under GNU GPL v2
For bug reports, read
	http://openocd.org/doc/doxygen/bugs.html
User : 3 2 options.c:52 configuration_output_handler(): debug_level: 3User : 4 2 options.c:52 configuration_output_handler(): 
Debug: 5 2 options.c:348 parse_cmdline_args(): ARGV[0] = "openocd"
Debug: 6 2 options.c:348 parse_cmdline_args(): ARGV[1] = "-d3"
Debug: 7 2 options.c:348 parse_cmdline_args(): ARGV[2] = "-f"
Debug: 8 2 options.c:348 parse_cmdline_args(): ARGV[3] = "board/st_nucleo_f4.cfg"
Debug: 9 2 options.c:348 parse_cmdline_args(): ARGV[4] = "-c"
Debug: 10 2 options.c:348 parse_cmdline_args(): ARGV[5] = "adapter serial 0671FF575755846687183960"
Debug: 11 2 options.c:348 parse_cmdline_args(): ARGV[6] = "-c"
Debug: 12 2 options.c:348 parse_cmdline_args(): ARGV[7] = "init"
Debug: 13 2 options.c:348 parse_cmdline_args(): ARGV[8] = "-c"
Debug: 14 2 options.c:348 parse_cmdline_args(): ARGV[9] = "reset init"
Debug: 15 2 options.c:348 parse_cmdline_args(): ARGV[10] = "-c"
Debug: 16 2 options.c:348 parse_cmdline_args(): ARGV[11] = "cortex_m vector_catch reset hard_err"
Debug: 17 2 options.c:348 parse_cmdline_args(): ARGV[12] = "-c"
Debug: 18 2 options.c:348 parse_cmdline_args(): ARGV[13] = "echo INSTALL_DEMCR=[read_memory 0xe000edfc 32 1]"
Debug: 19 2 options.c:348 parse_cmdline_args(): ARGV[14] = "-c"
Debug: 20 2 options.c:348 parse_cmdline_args(): ARGV[15] = "if {([lindex [read_memory 0xe000edfc 32 1] 0] & 0x401) != 0x401} { error "reset/fault catch enable failed" }"
Debug: 21 2 options.c:348 parse_cmdline_args(): ARGV[16] = "-c"
Debug: 22 2 options.c:348 parse_cmdline_args(): ARGV[17] = "dump_image /home/johannes/projects/.artifacts/runtime-portability-b/b-r4/run8/board-attempt2/preflash-full.bin 0x08000000 0x80000"
Debug: 23 2 options.c:348 parse_cmdline_args(): ARGV[18] = "-c"
Debug: 24 2 options.c:348 parse_cmdline_args(): ARGV[19] = "echo FLASH_OPTCR=[read_memory 0x40023c14 32 1]"
Debug: 25 2 options.c:348 parse_cmdline_args(): ARGV[20] = "-c"
Debug: 26 2 options.c:348 parse_cmdline_args(): ARGV[21] = "echo RCC_CSR=[read_memory 0x40023874 32 1]"
Debug: 27 2 options.c:348 parse_cmdline_args(): ARGV[22] = "-c"
Debug: 28 2 options.c:348 parse_cmdline_args(): ARGV[23] = "flash erase_sector 0 0 0"
Debug: 29 2 options.c:348 parse_cmdline_args(): ARGV[24] = "-c"
Debug: 30 2 options.c:348 parse_cmdline_args(): ARGV[25] = "flash erase_sector 0 4 7"
Debug: 31 2 options.c:348 parse_cmdline_args(): ARGV[26] = "-c"
Debug: 32 2 options.c:348 parse_cmdline_args(): ARGV[27] = "flash write_image /home/johannes/projects/.artifacts/runtime-portability-b/b-r4/run8/board-attempt2/firmware.elf"
Debug: 33 2 options.c:348 parse_cmdline_args(): ARGV[28] = "-c"
Debug: 34 2 options.c:348 parse_cmdline_args(): ARGV[29] = "verify_image /home/johannes/projects/.artifacts/runtime-portability-b/b-r4/run8/board-attempt2/firmware.elf"
Debug: 35 2 options.c:348 parse_cmdline_args(): ARGV[30] = "-c"
Debug: 36 2 options.c:348 parse_cmdline_args(): ARGV[31] = "dump_image /home/johannes/projects/.artifacts/runtime-portability-b/b-r4/run8/board-attempt2/firmware-sector0-before-app.bin 0x08000000 0x4000"
Debug: 37 2 options.c:348 parse_cmdline_args(): ARGV[32] = "-c"
Debug: 38 2 options.c:348 parse_cmdline_args(): ARGV[33] = "dump_image /home/johannes/projects/.artifacts/runtime-portability-b/b-r4/run8/board-attempt2/firmware-upper-before-app.bin 0x08010000 0x70000"
Debug: 39 2 options.c:348 parse_cmdline_args(): ARGV[34] = "-c"
Debug: 40 2 options.c:348 parse_cmdline_args(): ARGV[35] = "flash erase_sector 0 1 1"
Debug: 41 2 options.c:348 parse_cmdline_args(): ARGV[36] = "-c"
Debug: 42 2 options.c:348 parse_cmdline_args(): ARGV[37] = "flash write_image /home/johannes/projects/.artifacts/runtime-portability-b/b-r4/run8/board-attempt2/application.bin 0x08004000 bin"
Debug: 43 2 options.c:348 parse_cmdline_args(): ARGV[38] = "-c"
Debug: 44 2 options.c:348 parse_cmdline_args(): ARGV[39] = "verify_image /home/johannes/projects/.artifacts/runtime-portability-b/b-r4/run8/board-attempt2/application.bin 0x08004000 bin"
Debug: 45 2 options.c:348 parse_cmdline_args(): ARGV[40] = "-c"
Debug: 46 2 options.c:348 parse_cmdline_args(): ARGV[41] = "dump_image /home/johannes/projects/.artifacts/runtime-portability-b/b-r4/run8/board-attempt2/installed-application-sector.bin 0x08004000 0x4000"
Debug: 47 2 options.c:348 parse_cmdline_args(): ARGV[42] = "-c"
Debug: 48 2 options.c:348 parse_cmdline_args(): ARGV[43] = "dump_image /home/johannes/projects/.artifacts/runtime-portability-b/b-r4/run8/board-attempt2/firmware-sector0-after-app.bin 0x08000000 0x4000"
Debug: 49 2 options.c:348 parse_cmdline_args(): ARGV[44] = "-c"
Debug: 50 2 options.c:348 parse_cmdline_args(): ARGV[45] = "dump_image /home/johannes/projects/.artifacts/runtime-portability-b/b-r4/run8/board-attempt2/firmware-upper-after-app.bin 0x08010000 0x70000"
Debug: 51 2 options.c:348 parse_cmdline_args(): ARGV[46] = "-c"
Debug: 52 2 options.c:348 parse_cmdline_args(): ARGV[47] = "dump_image /home/johannes/projects/.artifacts/runtime-portability-b/b-r4/run8/board-attempt2/checkpoint-after-install.bin 0x08008000 0x8000"
Debug: 53 2 options.c:348 parse_cmdline_args(): ARGV[48] = "-c"
Debug: 54 2 options.c:348 parse_cmdline_args(): ARGV[49] = "mmw 0x40023840 0x10000000 0"
Debug: 55 2 options.c:348 parse_cmdline_args(): ARGV[50] = "-c"
Debug: 56 2 options.c:348 parse_cmdline_args(): ARGV[51] = "echo REINSTALL_RCC_APB1ENR=[read_memory 0x40023840 32 1]"
Debug: 57 2 options.c:348 parse_cmdline_args(): ARGV[52] = "-c"
Debug: 58 2 options.c:348 parse_cmdline_args(): ARGV[53] = "if {([lindex [read_memory 0x40023840 32 1] 0] & 0x10000000) == 0} { error "PWR clock enable failed" }"
Debug: 59 2 options.c:348 parse_cmdline_args(): ARGV[54] = "-c"
Debug: 60 2 options.c:348 parse_cmdline_args(): ARGV[55] = "mmw 0x40007000 0x100 0"
Debug: 61 2 options.c:348 parse_cmdline_args(): ARGV[56] = "-c"
Debug: 62 2 options.c:348 parse_cmdline_args(): ARGV[57] = "echo REINSTALL_PWR_CR=[read_memory 0x40007000 32 1]"
Debug: 63 2 options.c:348 parse_cmdline_args(): ARGV[58] = "-c"
Debug: 64 2 options.c:348 parse_cmdline_args(): ARGV[59] = "if {([lindex [read_memory 0x40007000 32 1] 0] & 0x100) == 0} { error "backup write enable failed" }"
Debug: 65 2 options.c:348 parse_cmdline_args(): ARGV[60] = "-c"
Debug: 66 2 options.c:348 parse_cmdline_args(): ARGV[61] = "echo PREVIOUS_BKP0R=[read_memory 0x40002850 32 1]"
Debug: 67 2 options.c:348 parse_cmdline_args(): ARGV[62] = "-c"
Debug: 68 2 options.c:348 parse_cmdline_args(): ARGV[63] = "echo PREVIOUS_BKP1R=[read_memory 0x40002854 32 1]"
Debug: 69 2 options.c:348 parse_cmdline_args(): ARGV[64] = "-c"
Debug: 70 2 options.c:348 parse_cmdline_args(): ARGV[65] = "mww 0x40002854 0"
Debug: 71 2 options.c:348 parse_cmdline_args(): ARGV[66] = "-c"
Debug: 72 2 options.c:348 parse_cmdline_args(): ARGV[67] = "mww 0x40002850 0"
Debug: 73 2 options.c:348 parse_cmdline_args(): ARGV[68] = "-c"
Debug: 74 2 options.c:348 parse_cmdline_args(): ARGV[69] = "if {[lindex [read_memory 0x40002854 32 1] 0] != 0 || [lindex [read_memory 0x40002850 32 1] 0] != 0} { error "reinstall cookie clear failed" }"
Debug: 75 2 options.c:348 parse_cmdline_args(): ARGV[70] = "-c"
Debug: 76 2 options.c:348 parse_cmdline_args(): ARGV[71] = "echo REINSTALL_COOKIE_CLEARED=1"
Debug: 77 2 options.c:348 parse_cmdline_args(): ARGV[72] = "-c"
Debug: 78 2 options.c:348 parse_cmdline_args(): ARGV[73] = "shutdown"
Debug: 79 2 options.c:233 add_default_dirs(): bindir=/usr/bin
Debug: 80 2 options.c:234 add_default_dirs(): pkgdatadir=/usr/share/openocd
Debug: 81 2 options.c:235 add_default_dirs(): exepath=/usr/bin
Debug: 82 2 options.c:236 add_default_dirs(): bin2data=../share/openocd
Debug: 83 2 configuration.c:33 add_script_search_dir(): adding /home/johannes/.config/openocd
Debug: 84 2 configuration.c:33 add_script_search_dir(): adding /home/johannes/.openocd
Debug: 85 2 configuration.c:33 add_script_search_dir(): adding /usr/bin/../share/openocd/site
Debug: 86 2 configuration.c:33 add_script_search_dir(): adding /usr/bin/../share/openocd/scripts
Debug: 87 2 command.c:86 script_debug(): command - ocd_find board/st_nucleo_f4.cfg
Debug: 88 2 configuration.c:89 find_file(): found /usr/bin/../share/openocd/scripts/board/st_nucleo_f4.cfg
Debug: 89 2 command.c:86 script_debug(): command - ocd_find interface/stlink.cfg
Debug: 90 2 configuration.c:89 find_file(): found /usr/bin/../share/openocd/scripts/interface/stlink.cfg
Debug: 91 2 command.c:86 script_debug(): command - adapter name
Debug: 92 2 command.c:86 script_debug(): command - adapter driver st-link
Debug: 93 2 command.c:86 script_debug(): command - st-link vid_pid 0x0483 0x3744 0x0483 0x3748 0x0483 0x374b 0x0483 0x374d 0x0483 0x374e 0x0483 0x374f 0x0483 0x3752 0x0483 0x3753 0x0483 0x3754 0x0483 0x3755 0x0483 0x3757
Debug: 94 2 command.c:86 script_debug(): command - transport select swd
Debug: 95 2 adi_v5_dapdirect.c:187 dapdirect_swd_select(): dapdirect_swd_select()
Debug: 96 2 command.c:86 script_debug(): command - ocd_find target/stm32f4x.cfg
Debug: 97 2 configuration.c:89 find_file(): found /usr/bin/../share/openocd/scripts/target/stm32f4x.cfg
Debug: 98 2 command.c:86 script_debug(): command - ocd_find target/swj-dp.tcl
Debug: 99 2 configuration.c:89 find_file(): found /usr/bin/../share/openocd/scripts/target/swj-dp.tcl
Debug: 100 2 command.c:86 script_debug(): command - transport select
Debug: 101 2 command.c:86 script_debug(): command - ocd_find mem_helper.tcl
Debug: 102 2 configuration.c:89 find_file(): found /usr/bin/../share/openocd/scripts/mem_helper.tcl
Debug: 103 2 command.c:86 script_debug(): command - add_usage_text mrw address
Debug: 104 2 command.c:86 script_debug(): command - add_help_text mrw Returns value of word in memory.
Debug: 105 2 command.c:86 script_debug(): command - add_usage_text mrh address
Debug: 106 2 command.c:86 script_debug(): command - add_help_text mrh Returns value of halfword in memory.
Debug: 107 2 command.c:86 script_debug(): command - add_usage_text mrb address
Debug: 108 2 command.c:86 script_debug(): command - add_help_text mrb Returns value of byte in memory.
Debug: 109 2 command.c:86 script_debug(): command - add_usage_text mmw address setbits clearbits
Debug: 110 2 command.c:86 script_debug(): command - add_help_text mmw Modify word in memory. new_val = (old_val & ~clearbits) | setbits;
Debug: 111 2 command.c:86 script_debug(): command - transport select
Debug: 112 2 command.c:86 script_debug(): command - transport select
Debug: 113 2 command.c:86 script_debug(): command - transport select
Debug: 114 2 command.c:86 script_debug(): command - swd newdap stm32f4x cpu -irlen 4 -ircapture 0x1 -irmask 0xf -expected-id 0x2ba01477
Debug: 115 2 tcl.c:404 handle_jtag_newtap_args(): Creating New Tap, Chip: stm32f4x, Tap: cpu, Dotted: stm32f4x.cpu, 8 params
Debug: 116 2 core.c:1488 jtag_tap_init(): Created Tap: stm32f4x.cpu @ abs position 0, irlen 4, capture: 0x1 mask: 0xf
Debug: 117 2 command.c:86 script_debug(): command - dap create stm32f4x.dap -chain-position stm32f4x.cpu
Debug: 118 2 command.c:86 script_debug(): command - transport select
Debug: 119 2 command.c:86 script_debug(): command - target create stm32f4x.cpu cortex_m -endian little -dap stm32f4x.dap
Debug: 120 2 command.c:191 register_command(): command 'tpiu' is already registered
Debug: 121 2 command.c:191 register_command(): command 'rtt' is already registered
Debug: 122 2 command.c:86 script_debug(): command - stm32f4x.cpu configure -work-area-phys 0x20000000 -work-area-size 0x8000 -work-area-backup 0
Debug: 123 2 target.c:2182 target_free_all_working_areas_restore(): freeing all working areas
Debug: 124 2 target.c:2182 target_free_all_working_areas_restore(): freeing all working areas
Debug: 125 2 target.c:2182 target_free_all_working_areas_restore(): freeing all working areas
Debug: 126 2 command.c:86 script_debug(): command - flash bank stm32f4x.flash stm32f2x 0 0 0 0 stm32f4x.cpu
Debug: 127 2 tcl.c:1433 handle_flash_bank_command(): 'stm32f2x' driver usage field missing
Debug: 128 2 command.c:86 script_debug(): command - flash bank stm32f4x.otp stm32f2x 0x1fff7800 0 0 0 stm32f4x.cpu
Debug: 129 2 command.c:191 register_command(): command 'stm32f2x' is already registered
Debug: 130 2 command.c:191 register_command(): command 'stm32f2x lock' is already registered
Debug: 131 2 command.c:191 register_command(): command 'stm32f2x unlock' is already registered
Debug: 132 2 command.c:191 register_command(): command 'stm32f2x mass_erase' is already registered
Debug: 133 2 command.c:191 register_command(): command 'stm32f2x options_read' is already registered
Debug: 134 2 command.c:191 register_command(): command 'stm32f2x options_write' is already registered
Debug: 135 2 command.c:191 register_command(): command 'stm32f2x optcr2_write' is already registered
Debug: 136 2 command.c:191 register_command(): command 'stm32f2x otp' is already registered
Debug: 137 2 tcl.c:1433 handle_flash_bank_command(): 'stm32f2x' driver usage field missing
Debug: 138 2 command.c:86 script_debug(): command - adapter speed 2000
Debug: 139 2 adapter.c:252 adapter_config_khz(): handle adapter khz
Debug: 140 2 adapter.c:215 adapter_khz_to_speed(): convert khz to adapter specific speed value
Debug: 141 2 adapter.c:215 adapter_khz_to_speed(): convert khz to adapter specific speed value
Debug: 142 2 command.c:86 script_debug(): command - adapter srst delay 100
Debug: 143 2 command.c:86 script_debug(): command - transport select
Debug: 144 2 command.c:86 script_debug(): command - reset_config srst_nogate
Debug: 145 2 command.c:86 script_debug(): command - transport select
Debug: 146 2 command.c:86 script_debug(): command - cortex_m reset_config sysresetreq
Debug: 147 2 command.c:86 script_debug(): command - stm32f4x.cpu configure -event examine-end 
	# Enable debug during low power modes (uses more power)
	# DBGMCU_CR |= DBG_STANDBY | DBG_STOP | DBG_SLEEP
	mmw 0xE0042004 0x00000007 0

	# Stop watchdog counters during halt
	# DBGMCU_APB1_FZ |= DBG_IWDG_STOP | DBG_WWDG_STOP
	mmw 0xE0042008 0x00001800 0

Debug: 148 2 command.c:86 script_debug(): command - tpiu create stm32f4x.tpiu -dap stm32f4x.dap -ap-num 0 -baseaddr 0xE0040000
Debug: 149 2 command.c:86 script_debug(): command - stm32f4x.tpiu configure -event pre-enable _proc_pre_enable_stm32f4x.tpiu stm32f4x
Debug: 150 2 command.c:86 script_debug(): command - stm32f4x.cpu configure -event reset-init 
	# Configure PLL to boost clock to HSI x 4 (64 MHz)
	mww 0x40023804 0x08012008   ;# RCC_PLLCFGR 16 Mhz /8 (M) * 128 (N) /4(P)
	mww 0x40023C00 0x00000102   ;# FLASH_ACR = PRFTBE | 2(Latency)
	mmw 0x40023800 0x01000000 0 ;# RCC_CR |= PLLON
	sleep 10                    ;# Wait for PLL to lock
	mmw 0x40023808 0x00001000 0 ;# RCC_CFGR |= RCC_CFGR_PPRE1_DIV2
	mmw 0x40023808 0x00000002 0 ;# RCC_CFGR |= RCC_CFGR_SW_PLL

	# Boost JTAG frequency
	adapter speed 8000

Debug: 151 2 command.c:86 script_debug(): command - stm32f4x.cpu configure -event reset-start 
	# Reduce speed since CPU speed will slow down to 16MHz with the reset
	adapter speed 2000

Debug: 152 2 command.c:86 script_debug(): command - reset_config srst_only
User : 153 2 options.c:52 configuration_output_handler(): srst_only separate srst_nogate srst_open_drain connect_deassert_srstUser : 154 2 options.c:52 configuration_output_handler(): 
Debug: 155 2 command.c:86 script_debug(): command - adapter serial 0671FF575755846687183960
Debug: 156 2 command.c:86 script_debug(): command - init
Debug: 157 2 command.c:86 script_debug(): command - target init
Debug: 158 2 command.c:86 script_debug(): command - target names
Debug: 159 2 command.c:86 script_debug(): command - stm32f4x.cpu cget -event gdb-flash-erase-start
Debug: 160 3 command.c:86 script_debug(): command - stm32f4x.cpu configure -event gdb-flash-erase-start reset init
Debug: 161 3 command.c:86 script_debug(): command - stm32f4x.cpu cget -event gdb-flash-write-end
Debug: 162 3 command.c:86 script_debug(): command - stm32f4x.cpu configure -event gdb-flash-write-end reset halt
Debug: 163 3 command.c:86 script_debug(): command - stm32f4x.cpu cget -event gdb-attach
Debug: 164 3 command.c:86 script_debug(): command - stm32f4x.cpu configure -event gdb-attach halt 1000
Debug: 165 3 target.c:1640 handle_target_init_command(): Initializing targets...
Debug: 166 3 semihosting_common.c:109 semihosting_common_init():  
Debug: 167 13 stlink_usb.c:5120 stlink_dap_init(): stlink_dap_init()
Debug: 168 13 stlink_usb.c:3732 stlink_open(): stlink_open
Debug: 169 13 stlink_usb.c:3744 stlink_open(): transport: 4 vid: 0x0483 pid: 0x3744 serial: 0671FF575755846687183960
Debug: 170 13 stlink_usb.c:3744 stlink_open(): transport: 4 vid: 0x0483 pid: 0x3748 serial: 0671FF575755846687183960
Debug: 171 13 stlink_usb.c:3744 stlink_open(): transport: 4 vid: 0x0483 pid: 0x374b serial: 0671FF575755846687183960
Debug: 172 13 stlink_usb.c:3744 stlink_open(): transport: 4 vid: 0x0483 pid: 0x374d serial: 0671FF575755846687183960
Debug: 173 13 stlink_usb.c:3744 stlink_open(): transport: 4 vid: 0x0483 pid: 0x374e serial: 0671FF575755846687183960
Debug: 174 13 stlink_usb.c:3744 stlink_open(): transport: 4 vid: 0x0483 pid: 0x374f serial: 0671FF575755846687183960
Debug: 175 13 stlink_usb.c:3744 stlink_open(): transport: 4 vid: 0x0483 pid: 0x3752 serial: 0671FF575755846687183960
Debug: 176 13 stlink_usb.c:3744 stlink_open(): transport: 4 vid: 0x0483 pid: 0x3753 serial: 0671FF575755846687183960
Debug: 177 13 stlink_usb.c:3744 stlink_open(): transport: 4 vid: 0x0483 pid: 0x3754 serial: 0671FF575755846687183960
Debug: 178 13 stlink_usb.c:3744 stlink_open(): transport: 4 vid: 0x0483 pid: 0x3755 serial: 0671FF575755846687183960
Debug: 179 13 stlink_usb.c:3744 stlink_open(): transport: 4 vid: 0x0483 pid: 0x3757 serial: 0671FF575755846687183960
Info : 180 21 stlink_usb.c:1471 stlink_usb_version(): STLINK V2J30M19 (API v2) VID:PID 0483:374B
Debug: 181 21 stlink_usb.c:1696 stlink_usb_exit_mode(): MODE: 0x01
Info : 182 21 stlink_usb.c:1507 stlink_usb_check_voltage(): Target voltage: 3.253997
Debug: 183 21 stlink_usb.c:1764 stlink_usb_init_mode(): MODE: 0x01
Debug: 184 21 stlink_usb.c:3130 stlink_dump_speed_map(): Supported clock speeds are:
Debug: 185 21 stlink_usb.c:3133 stlink_dump_speed_map(): 4000 kHz
Debug: 186 21 stlink_usb.c:3133 stlink_dump_speed_map(): 1800 kHz
Debug: 187 21 stlink_usb.c:3133 stlink_dump_speed_map(): 1200 kHz
Debug: 188 21 stlink_usb.c:3133 stlink_dump_speed_map(): 950 kHz
Debug: 189 21 stlink_usb.c:3133 stlink_dump_speed_map(): 480 kHz
Debug: 190 21 stlink_usb.c:3133 stlink_dump_speed_map(): 240 kHz
Debug: 191 21 stlink_usb.c:3133 stlink_dump_speed_map(): 125 kHz
Debug: 192 21 stlink_usb.c:3133 stlink_dump_speed_map(): 100 kHz
Debug: 193 21 stlink_usb.c:3133 stlink_dump_speed_map(): 50 kHz
Debug: 194 21 stlink_usb.c:3133 stlink_dump_speed_map(): 25 kHz
Debug: 195 21 stlink_usb.c:3133 stlink_dump_speed_map(): 15 kHz
Debug: 196 21 stlink_usb.c:3133 stlink_dump_speed_map(): 5 kHz
Debug: 197 22 stlink_usb.c:1824 stlink_usb_init_mode(): MODE: 0x02
Debug: 198 23 stlink_usb.c:4127 stlink_usb_open_ap(): AP 0 enabled
Debug: 199 23 stlink_usb.c:3820 stlink_open(): Using TAR autoincrement: 4096
Debug: 200 23 adapter.c:215 adapter_khz_to_speed(): convert khz to adapter specific speed value
Debug: 201 23 adapter.c:219 adapter_khz_to_speed(): have adapter set up
Info : 202 23 stlink_usb.c:3073 stlink_match_speed_map(): Unable to match requested speed 2000 kHz, using 1800 kHz
Debug: 203 23 adapter.c:215 adapter_khz_to_speed(): convert khz to adapter specific speed value
Debug: 204 23 adapter.c:219 adapter_khz_to_speed(): have adapter set up
Info : 205 23 stlink_usb.c:3073 stlink_match_speed_map(): Unable to match requested speed 2000 kHz, using 1800 kHz
Info : 206 23 adapter.c:180 adapter_init(): clock speed 1800 kHz
Debug: 207 23 openocd.c:133 handle_init_command(): Debug Adapter init complete
Debug: 208 23 command.c:86 script_debug(): command - transport init
Debug: 209 23 transport.c:274 handle_transport_init(): handle_transport_init
Debug: 210 23 adi_v5_dapdirect.c:196 dapdirect_init(): dapdirect_init()
Debug: 211 23 stlink_usb.c:5168 stlink_dap_reset(): stlink_dap_reset(0)
Debug: 212 23 core.c:653 adapter_system_reset(): SRST line released
Debug: 213 124 command.c:86 script_debug(): command - dap init
Debug: 214 124 arm_dap.c:96 dap_init_all(): Initializing all DAPs ...
Debug: 215 124 arm_dap.c:120 dap_init_all(): DAP stm32f4x.cpu configured by default to use ADIv5 protocol
Info : 216 124 stlink_usb.c:4197 stlink_dap_op_connect(): stlink_dap_op_connect(connect)
Debug: 217 124 arm_adi_v5.c:783 dap_dp_init(): stm32f4x.dap
Debug: 218 124 arm_adi_v5.c:815 dap_dp_init(): DAP: wait CDBGPWRUPACK
Debug: 219 124 arm_adi_v5.h:682 dap_dp_poll_register(): DAP: poll 4, mask 0x20000000, value 0x20000000
Debug: 220 124 arm_adi_v5.c:823 dap_dp_init(): DAP: wait CSYSPWRUPACK
Debug: 221 124 arm_adi_v5.h:682 dap_dp_poll_register(): DAP: poll 4, mask 0x80000000, value 0x80000000
Debug: 222 125 stlink_usb.c:2057 stlink_usb_idcode(): IDCODE: 0x2BA01477
Info : 223 125 stlink_usb.c:4224 stlink_dap_op_connect(): SWD DPIDR 0x2ba01477
Debug: 224 125 openocd.c:150 handle_init_command(): Examining targets...
Debug: 225 125 target.c:726 target_examine_one(): [stm32f4x.cpu] Examination started
Debug: 226 125 target.c:1826 target_call_event_callbacks(): target event 19 (examine-start) for core stm32f4x.cpu
Debug: 227 125 arm_adi_v5.c:1193 dap_get_ap(): refcount AP#0x0 get 1
Debug: 228 125 arm_adi_v5.c:1136 dap_find_get_ap(): Found MEM-AP AHB3 at AP index: 0 (IDR=0x24770011)
Debug: 229 126 arm_adi_v5.c:934 mem_ap_init(): MEM_AP CFG: large data 0, long address 0, big-endian 0
Debug: 230 126 target.c:2613 target_read_u32(): address: 0xe000ed00, value: 0x410fc241
Info : 231 126 cortex_m.c:2756 cortex_m_examine(): [stm32f4x.cpu] Cortex-M4 r0p1 processor detected
Debug: 232 126 cortex_m.c:2779 cortex_m_examine(): [stm32f4x.cpu] cpuid: 0x410fc241
Debug: 233 127 target.c:2613 target_read_u32(): address: 0xe000ef40, value: 0x10110021
Debug: 234 127 cortex_m.c:2786 cortex_m_examine(): [stm32f4x.cpu] Cortex-M4 floating point feature FPv4_SP found
Debug: 235 127 target.c:2613 target_read_u32(): address: 0xe000edf0, value: 0x00030003
Debug: 236 127 target.c:2701 target_write_u32(): address: 0xe000edfc, value: 0x01000000
Debug: 237 128 target.c:2701 target_write_u32(): address: 0xe0000fb0, value: 0xc5acce55
Debug: 238 128 target.c:2613 target_read_u32(): address: 0xe0000e80, value: 0x00010009
Debug: 239 128 target.c:2701 target_write_u32(): address: 0xe0000e80, value: 0x00010008
Debug: 240 129 target.c:2613 target_read_u32(): address: 0xe0000e80, value: 0x00010008
Debug: 241 129 target.c:2701 target_write_u32(): address: 0xe0000e80, value: 0x00010009
Debug: 242 130 target.c:2701 target_write_u32(): address: 0xe0000e00, value: 0x00000001
Debug: 243 130 target.c:2701 target_write_u32(): address: 0xe0000e04, value: 0x00000000
Debug: 244 130 target.c:2701 target_write_u32(): address: 0xe0000e08, value: 0x00000000
Debug: 245 131 target.c:2701 target_write_u32(): address: 0xe0000e0c, value: 0x00000000
Debug: 246 131 target.c:2701 target_write_u32(): address: 0xe0000e10, value: 0x00000000
Debug: 247 131 target.c:2701 target_write_u32(): address: 0xe0000e14, value: 0x00000000
Debug: 248 132 target.c:2701 target_write_u32(): address: 0xe0000e18, value: 0x00000000
Debug: 249 132 target.c:2701 target_write_u32(): address: 0xe0000e1c, value: 0x00000000
Debug: 250 133 target.c:2613 target_read_u32(): address: 0xe0002000, value: 0x00000261
Debug: 251 133 target.c:2701 target_write_u32(): address: 0xe0002008, value: 0x00000000
Debug: 252 133 target.c:2701 target_write_u32(): address: 0xe000200c, value: 0x00000000
Debug: 253 133 target.c:2701 target_write_u32(): address: 0xe0002010, value: 0x00000000
Debug: 254 134 target.c:2701 target_write_u32(): address: 0xe0002014, value: 0x00000000
Debug: 255 134 target.c:2701 target_write_u32(): address: 0xe0002018, value: 0x00000000
Debug: 256 134 target.c:2701 target_write_u32(): address: 0xe000201c, value: 0x00000000
Debug: 257 135 target.c:2701 target_write_u32(): address: 0xe0002020, value: 0x00000000
Debug: 258 135 target.c:2701 target_write_u32(): address: 0xe0002024, value: 0x00000000
Debug: 259 135 cortex_m.c:2899 cortex_m_examine(): [stm32f4x.cpu] FPB fpcr 0x261, numcode 6, numlit 2
Debug: 260 136 target.c:2613 target_read_u32(): address: 0xe0001000, value: 0x40000001
Debug: 261 136 cortex_m.c:2467 cortex_m_dwt_setup(): [stm32f4x.cpu] DWT_CTRL: 0x40000001
Debug: 262 136 target.c:2613 target_read_u32(): address: 0xe0001fbc, value: 0x00000000
Debug: 263 136 cortex_m.c:2474 cortex_m_dwt_setup(): [stm32f4x.cpu] DWT_DEVARCH: 0x0
Debug: 264 136 target.c:2701 target_write_u32(): address: 0xe0001028, value: 0x00000000
Debug: 265 137 target.c:2701 target_write_u32(): address: 0xe0001038, value: 0x00000000
Debug: 266 137 target.c:2701 target_write_u32(): address: 0xe0001048, value: 0x00000000
Debug: 267 138 target.c:2701 target_write_u32(): address: 0xe0001058, value: 0x00000000
Debug: 268 138 cortex_m.c:2521 cortex_m_dwt_setup(): [stm32f4x.cpu] DWT dwtcr 0x40000001, comp 4, watch/trigger
Info : 269 138 cortex_m.c:2909 cortex_m_examine(): [stm32f4x.cpu] target has 6 breakpoints, 4 watchpoints
Debug: 270 138 target.c:1826 target_call_event_callbacks(): target event 21 (examine-end) for core stm32f4x.cpu
Debug: 271 138 target.c:4721 target_handle_event_ret(): target: stm32f4x.cpu (cortex_m) event: 21 (examine-end) action: 
	# Enable debug during low power modes (uses more power)
	# DBGMCU_CR |= DBG_STANDBY | DBG_STOP | DBG_SLEEP
	mmw 0xE0042004 0x00000007 0

	# Stop watchdog counters during halt
	# DBGMCU_APB1_FZ |= DBG_IWDG_STOP | DBG_WWDG_STOP
	mmw 0xE0042008 0x00001800 0

Debug: 272 138 command.c:86 script_debug(): command - read_memory 0xE0042004 32 1
Debug: 273 138 command.c:86 script_debug(): command - mww 0xE0042004 7
Debug: 274 139 command.c:86 script_debug(): command - read_memory 0xE0042008 32 1
Debug: 275 139 command.c:86 script_debug(): command - mww 0xE0042008 6144
Info : 276 140 target.c:742 target_examine_one(): [stm32f4x.cpu] Examination succeed
Debug: 277 140 command.c:86 script_debug(): command - flash init
Debug: 278 140 tcl.c:1490 handle_flash_init_command(): Initializing flash devices...
Debug: 279 140 command.c:86 script_debug(): command - nand init
Debug: 280 140 tcl.c:484 handle_nand_init_command(): Initializing NAND devices...
Debug: 281 140 command.c:86 script_debug(): command - pld init
Debug: 282 140 pld.c:337 handle_pld_init_command(): Initializing PLDs...
Debug: 283 140 command.c:86 script_debug(): command - tpiu init
Info : 284 140 gdb_server.c:3861 gdb_target_start(): [stm32f4x.cpu] starting gdb server on 3333
Info : 285 140 server.c:298 add_service(): Listening on port 3333 for gdb connections
Debug: 286 140 command.c:86 script_debug(): command - target names
Debug: 287 140 command.c:86 script_debug(): command - target names
Debug: 288 140 command.c:86 script_debug(): command - stm32f4x.cpu cget -type
Debug: 289 140 command.c:86 script_debug(): command - reset init
Debug: 290 140 target.c:1845 target_call_reset_callbacks(): target reset 3 (init)
Debug: 291 140 command.c:86 script_debug(): command - target names
Debug: 292 140 command.c:86 script_debug(): command - stm32f4x.cpu invoke-event reset-start
Debug: 293 140 target.c:4721 target_handle_event_ret(): target: stm32f4x.cpu (cortex_m) event: 9 (reset-start) action: 
	# Reduce speed since CPU speed will slow down to 16MHz with the reset
	adapter speed 2000

Debug: 294 140 command.c:86 script_debug(): command - adapter speed 2000
Debug: 295 140 adapter.c:252 adapter_config_khz(): handle adapter khz
Debug: 296 140 adapter.c:215 adapter_khz_to_speed(): convert khz to adapter specific speed value
Debug: 297 140 adapter.c:219 adapter_khz_to_speed(): have adapter set up
Info : 298 140 stlink_usb.c:3073 stlink_match_speed_map(): Unable to match requested speed 2000 kHz, using 1800 kHz
Debug: 299 140 adapter.c:215 adapter_khz_to_speed(): convert khz to adapter specific speed value
Debug: 300 140 adapter.c:219 adapter_khz_to_speed(): have adapter set up
Info : 301 140 stlink_usb.c:3073 stlink_match_speed_map(): Unable to match requested speed 2000 kHz, using 1800 kHz
Debug: 302 140 command.c:86 script_debug(): command - transport select
Debug: 303 140 command.c:86 script_debug(): command - transport select
Debug: 304 140 command.c:86 script_debug(): command - stm32f4x.cpu invoke-event examine-start
Debug: 305 140 command.c:86 script_debug(): command - stm32f4x.cpu arp_examine allow-defer
Debug: 306 141 arm_adi_v5.c:934 mem_ap_init(): MEM_AP CFG: large data 0, long address 0, big-endian 0
Debug: 307 141 command.c:86 script_debug(): command - stm32f4x.cpu invoke-event examine-end
Debug: 308 141 target.c:4721 target_handle_event_ret(): target: stm32f4x.cpu (cortex_m) event: 21 (examine-end) action: 
	# Enable debug during low power modes (uses more power)
	# DBGMCU_CR |= DBG_STANDBY | DBG_STOP | DBG_SLEEP
	mmw 0xE0042004 0x00000007 0

	# Stop watchdog counters during halt
	# DBGMCU_APB1_FZ |= DBG_IWDG_STOP | DBG_WWDG_STOP
	mmw 0xE0042008 0x00001800 0

Debug: 309 141 command.c:86 script_debug(): command - read_memory 0xE0042004 32 1
Debug: 310 141 command.c:86 script_debug(): command - mww 0xE0042004 7
Debug: 311 142 command.c:86 script_debug(): command - read_memory 0xE0042008 32 1
Debug: 312 142 command.c:86 script_debug(): command - mww 0xE0042008 6144
Debug: 313 143 command.c:86 script_debug(): command - stm32f4x.cpu invoke-event reset-assert-pre
Debug: 314 143 command.c:86 script_debug(): command - transport select
Debug: 315 143 command.c:86 script_debug(): command - stm32f4x.cpu arp_reset assert 1
Debug: 316 143 target.c:2182 target_free_all_working_areas_restore(): freeing all working areas
Debug: 317 143 cortex_m.c:1694 cortex_m_assert_reset(): [stm32f4x.cpu] target->state: unknown, examined
Debug: 318 143 stlink_usb.c:5168 stlink_dap_reset(): stlink_dap_reset(1)
Debug: 319 143 core.c:649 adapter_system_reset(): SRST line asserted
Debug: 320 194 command.c:86 script_debug(): command - stm32f4x.cpu invoke-event reset-assert-post
Debug: 321 194 command.c:86 script_debug(): command - stm32f4x.cpu invoke-event reset-deassert-pre
Debug: 322 194 command.c:86 script_debug(): command - transport select
Debug: 323 194 command.c:86 script_debug(): command - stm32f4x.cpu arp_reset deassert 1
Debug: 324 194 target.c:2182 target_free_all_working_areas_restore(): freeing all working areas
Debug: 325 194 cortex_m.c:1853 cortex_m_deassert_reset(): [stm32f4x.cpu] target->state: reset, examined
Debug: 326 194 stlink_usb.c:5168 stlink_dap_reset(): stlink_dap_reset(0)
Debug: 327 194 core.c:653 adapter_system_reset(): SRST line released
Debug: 328 295 command.c:86 script_debug(): command - stm32f4x.cpu invoke-event reset-deassert-post
Debug: 329 295 command.c:86 script_debug(): command - transport select
Debug: 330 295 command.c:86 script_debug(): command - stm32f4x.cpu was_examined
Debug: 331 295 command.c:86 script_debug(): command - stm32f4x.cpu arp_waitstate halted 1000
Debug: 332 296 cortex_m.c:1015 cortex_m_poll_one(): [stm32f4x.cpu] Exit from reset with dcb_dhcsr 0x30003
Debug: 333 296 cortex_m.c:619 cortex_m_endreset_event(): [stm32f4x.cpu] DCB_DEMCR = 0x01000501
Debug: 334 297 target.c:2701 target_write_u32(): address: 0xe0002000, value: 0x00000003
Debug: 335 298 target.c:2613 target_read_u32(): address: 0xe0002000, value: 0x00000261
Debug: 336 298 target.c:2701 target_write_u32(): address: 0xe0002008, value: 0x00000000
Debug: 337 298 target.c:2701 target_write_u32(): address: 0xe000200c, value: 0x00000000
Debug: 338 299 target.c:2701 target_write_u32(): address: 0xe0002010, value: 0x00000000
Debug: 339 299 target.c:2701 target_write_u32(): address: 0xe0002014, value: 0x00000000
Debug: 340 300 target.c:2701 target_write_u32(): address: 0xe0002018, value: 0x00000000
Debug: 341 300 target.c:2701 target_write_u32(): address: 0xe000201c, value: 0x00000000
Debug: 342 300 target.c:2701 target_write_u32(): address: 0xe0002020, value: 0x00000000
Debug: 343 301 target.c:2701 target_write_u32(): address: 0xe0002024, value: 0x00000000
Debug: 344 301 target.c:2701 target_write_u32(): address: 0xe0001020, value: 0x00000000
Debug: 345 301 target.c:2701 target_write_u32(): address: 0xe0001024, value: 0x00000000
Debug: 346 302 target.c:2701 target_write_u32(): address: 0xe0001028, value: 0x00000000
Debug: 347 302 target.c:2701 target_write_u32(): address: 0xe0001030, value: 0x00000000
Debug: 348 303 target.c:2701 target_write_u32(): address: 0xe0001034, value: 0x00000000
Debug: 349 303 target.c:2701 target_write_u32(): address: 0xe0001038, value: 0x00000000
Debug: 350 303 target.c:2701 target_write_u32(): address: 0xe0001040, value: 0x00000000
Debug: 351 304 target.c:2701 target_write_u32(): address: 0xe0001044, value: 0x00000000
Debug: 352 304 target.c:2701 target_write_u32(): address: 0xe0001048, value: 0x00000000
Debug: 353 304 target.c:2701 target_write_u32(): address: 0xe0001050, value: 0x00000000
Debug: 354 305 target.c:2701 target_write_u32(): address: 0xe0001054, value: 0x00000000
Debug: 355 305 target.c:2701 target_write_u32(): address: 0xe0001058, value: 0x00000000
Debug: 356 306 cortex_m.c:852 cortex_m_debug_entry(): [stm32f4x.cpu]  
Debug: 357 307 cortex_m.c:557 cortex_m_clear_halt(): [stm32f4x.cpu] NVIC_DFSR 0x9
Debug: 358 328 cortex_m.c:359 cortex_m_fast_read_all_regs(): [stm32f4x.cpu] read 53 32-bit registers
Debug: 359 328 cortex_m.c:922 cortex_m_debug_entry(): [stm32f4x.cpu] entered debug state in core mode: Thread at PC 0x8010000, cpu in Non-Secure state, target->state: halted
Debug: 360 328 target.c:1826 target_call_event_callbacks(): target event 0 (gdb-halt) for core stm32f4x.cpu
Debug: 361 328 target.c:1826 target_call_event_callbacks(): target event 1 (halted) for core stm32f4x.cpu
User : 362 328 armv7m.c:771 armv7m_arch_state(): [stm32f4x.cpu] halted due to debug-request, current mode: Thread 
xPSR: 0x01000000 pc: 0x08010000 msp: 0x20018000
Debug: 363 328 command.c:86 script_debug(): command - stm32f4x.cpu curstate
Debug: 364 328 command.c:86 script_debug(): command - transport select
Debug: 365 328 command.c:86 script_debug(): command - stm32f4x.cpu was_examined
Debug: 366 328 command.c:86 script_debug(): command - stm32f4x.cpu arp_waitstate halted 5000
Debug: 367 328 command.c:86 script_debug(): command - stm32f4x.cpu invoke-event reset-init
Debug: 368 328 target.c:4721 target_handle_event_ret(): target: stm32f4x.cpu (cortex_m) event: 15 (reset-init) action: 
	# Configure PLL to boost clock to HSI x 4 (64 MHz)
	mww 0x40023804 0x08012008   ;# RCC_PLLCFGR 16 Mhz /8 (M) * 128 (N) /4(P)
	mww 0x40023C00 0x00000102   ;# FLASH_ACR = PRFTBE | 2(Latency)
	mmw 0x40023800 0x01000000 0 ;# RCC_CR |= PLLON
	sleep 10                    ;# Wait for PLL to lock
	mmw 0x40023808 0x00001000 0 ;# RCC_CFGR |= RCC_CFGR_PPRE1_DIV2
	mmw 0x40023808 0x00000002 0 ;# RCC_CFGR |= RCC_CFGR_SW_PLL

	# Boost JTAG frequency
	adapter speed 8000

Debug: 369 328 command.c:86 script_debug(): command - mww 0x40023804 0x08012008
Debug: 370 329 command.c:86 script_debug(): command - mww 0x40023C00 0x00000102
Debug: 371 329 command.c:86 script_debug(): command - read_memory 0x40023800 32 1
Debug: 372 330 command.c:86 script_debug(): command - mww 0x40023800 17069443
Debug: 373 330 command.c:86 script_debug(): command - sleep 10
Debug: 374 341 command.c:86 script_debug(): command - read_memory 0x40023808 32 1
Debug: 375 341 command.c:86 script_debug(): command - mww 0x40023808 4096
Debug: 376 341 command.c:86 script_debug(): command - read_memory 0x40023808 32 1
Debug: 377 342 command.c:86 script_debug(): command - mww 0x40023808 4098
Debug: 378 342 command.c:86 script_debug(): command - adapter speed 8000
Debug: 379 342 adapter.c:252 adapter_config_khz(): handle adapter khz
Debug: 380 342 adapter.c:215 adapter_khz_to_speed(): convert khz to adapter specific speed value
Debug: 381 342 adapter.c:219 adapter_khz_to_speed(): have adapter set up
Info : 382 342 stlink_usb.c:3073 stlink_match_speed_map(): Unable to match requested speed 8000 kHz, using 4000 kHz
Debug: 383 342 adapter.c:215 adapter_khz_to_speed(): convert khz to adapter specific speed value
Debug: 384 342 adapter.c:219 adapter_khz_to_speed(): have adapter set up
Info : 385 342 stlink_usb.c:3073 stlink_match_speed_map(): Unable to match requested speed 8000 kHz, using 4000 kHz
Debug: 386 342 command.c:86 script_debug(): command - stm32f4x.cpu invoke-event reset-end
Debug: 387 343 command.c:86 script_debug(): command - cortex_m vector_catch reset hard_err
User : 388 343 options.c:52 configuration_output_handler():  hard_err: catch
  int_err: ignore
  bus_err: ignore
state_err: ignore
  chk_err: ignore
 nocp_err: ignore
   mm_err: ignore
    reset: catchUser : 389 343 options.c:52 configuration_output_handler(): 
Debug: 390 343 command.c:86 script_debug(): command - read_memory 0xe000edfc 32 1
Debug: 391 343 command.c:86 script_debug(): command - echo INSTALL_DEMCR=0x1000401
User : 392 343 command.c:607 handle_echo(): INSTALL_DEMCR=0x1000401
Debug: 393 344 command.c:86 script_debug(): command - read_memory 0xe000edfc 32 1
Debug: 394 344 command.c:86 script_debug(): command - dump_image /home/johannes/projects/.artifacts/runtime-portability-b/b-r4/run8/board-attempt2/preflash-full.bin 0x08000000 0x80000
Debug: 395 344 target.c:2460 target_read_buffer(): reading buffer of 4096 byte at 0x08000000
Debug: 396 464 target.c:2460 target_read_buffer(): reading buffer of 4096 byte at 0x08001000
Debug: 397 583 target.c:2460 target_read_buffer(): reading buffer of 4096 byte at 0x08002000
Debug: 398 704 target.c:2460 target_read_buffer(): reading buffer of 4096 byte at 0x08003000
Debug: 399 827 target.c:2460 target_read_buffer(): reading buffer of 4096 byte at 0x08004000
Debug: 400 945 target.c:2460 target_read_buffer(): reading buffer of 4096 byte at 0x08005000
Debug: 401 1063 target.c:2460 target_read_buffer(): reading buffer of 4096 byte at 0x08006000
Debug: 402 1183 target.c:2460 target_read_buffer(): reading buffer of 4096 byte at 0x08007000
Debug: 403 1304 target.c:2460 target_read_buffer(): reading buffer of 4096 byte at 0x08008000
Debug: 404 1432 target.c:2460 target_read_buffer(): reading buffer of 4096 byte at 0x08009000
Debug: 405 1562 target.c:2460 target_read_buffer(): reading buffer of 4096 byte at 0x0800a000
Debug: 406 1691 target.c:2460 target_read_buffer(): reading buffer of 4096 byte at 0x0800b000
Debug: 407 1822 target.c:2460 target_read_buffer(): reading buffer of 4096 byte at 0x0800c000
Debug: 408 1952 target.c:2460 target_read_buffer(): reading buffer of 4096 byte at 0x0800d000
Debug: 409 2082 target.c:2460 target_read_buffer(): reading buffer of 4096 byte at 0x0800e000
Debug: 410 2213 target.c:2460 target_read_buffer(): reading buffer of 4096 byte at 0x0800f000
Debug: 411 2345 target.c:2460 target_read_buffer(): reading buffer of 4096 byte at 0x08010000
Debug: 412 2469 target.c:2460 target_read_buffer(): reading buffer of 4096 byte at 0x08011000
Debug: 413 2593 target.c:2460 target_read_buffer(): reading buffer of 4096 byte at 0x08012000
Debug: 414 2714 target.c:2460 target_read_buffer(): reading buffer of 4096 byte at 0x08013000
Debug: 415 2841 target.c:2460 target_read_buffer(): reading buffer of 4096 byte at 0x08014000
Debug: 416 2967 target.c:2460 target_read_buffer(): reading buffer of 4096 byte at 0x08015000
Debug: 417 3090 target.c:2460 target_read_buffer(): reading buffer of 4096 byte at 0x08016000
Debug: 418 3212 target.c:2460 target_read_buffer(): reading buffer of 4096 byte at 0x08017000
Debug: 419 3333 target.c:2460 target_read_buffer(): reading buffer of 4096 byte at 0x08018000
Debug: 420 3454 target.c:2460 target_read_buffer(): reading buffer of 4096 byte at 0x08019000
Debug: 421 3574 target.c:2460 target_read_buffer(): reading buffer of 4096 byte at 0x0801a000
Debug: 422 3696 target.c:2460 target_read_buffer(): reading buffer of 4096 byte at 0x0801b000
Debug: 423 3817 target.c:2460 target_read_buffer(): reading buffer of 4096 byte at 0x0801c000
Debug: 424 3938 target.c:2460 target_read_buffer(): reading buffer of 4096 byte at 0x0801d000
Debug: 425 4060 target.c:2460 target_read_buffer(): reading buffer of 4096 byte at 0x0801e000
Debug: 426 4182 target.c:2460 target_read_buffer(): reading buffer of 4096 byte at 0x0801f000
Debug: 427 4304 target.c:2460 target_read_buffer(): reading buffer of 4096 byte at 0x08020000
Debug: 428 4424 target.c:2460 target_read_buffer(): reading buffer of 4096 byte at 0x08021000
Debug: 429 4544 target.c:2460 target_read_buffer(): reading buffer of 4096 byte at 0x08022000
Debug: 430 4665 target.c:2460 target_read_buffer(): reading buffer of 4096 byte at 0x08023000
Debug: 431 4787 target.c:2460 target_read_buffer(): reading buffer of 4096 byte at 0x08024000
Debug: 432 4908 target.c:2460 target_read_buffer(): reading buffer of 4096 byte at 0x08025000
Debug: 433 5030 target.c:2460 target_read_buffer(): reading buffer of 4096 byte at 0x08026000
Debug: 434 5149 target.c:2460 target_read_buffer(): reading buffer of 4096 byte at 0x08027000
Debug: 435 5271 target.c:2460 target_read_buffer(): reading buffer of 4096 byte at 0x08028000
Debug: 436 5392 target.c:2460 target_read_buffer(): reading buffer of 4096 byte at 0x08029000
Debug: 437 5512 target.c:2460 target_read_buffer(): reading buffer of 4096 byte at 0x0802a000
Debug: 438 5638 target.c:2460 target_read_buffer(): reading buffer of 4096 byte at 0x0802b000
Debug: 439 5771 target.c:2460 target_read_buffer(): reading buffer of 4096 byte at 0x0802c000
Debug: 440 5928 target.c:2460 target_read_buffer(): reading buffer of 4096 byte at 0x0802d000
Debug: 441 6082 target.c:2460 target_read_buffer(): reading buffer of 4096 byte at 0x0802e000
Debug: 442 6211 target.c:2460 target_read_buffer(): reading buffer of 4096 byte at 0x0802f000
Debug: 443 6379 target.c:2460 target_read_buffer(): reading buffer of 4096 byte at 0x08030000
Debug: 444 6595 target.c:2460 target_read_buffer(): reading buffer of 4096 byte at 0x08031000
Debug: 445 6819 target.c:2460 target_read_buffer(): reading buffer of 4096 byte at 0x08032000
Debug: 446 7039 target.c:2460 target_read_buffer(): reading buffer of 4096 byte at 0x08033000
Debug: 447 7263 target.c:2460 target_read_buffer(): reading buffer of 4096 byte at 0x08034000
Debug: 448 7548 target.c:2460 target_read_buffer(): reading buffer of 4096 byte at 0x08035000
Debug: 449 7825 target.c:2460 target_read_buffer(): reading buffer of 4096 byte at 0x08036000
Debug: 450 7995 target.c:2460 target_read_buffer(): reading buffer of 4096 byte at 0x08037000
Debug: 451 8136 target.c:2460 target_read_buffer(): reading buffer of 4096 byte at 0x08038000
Debug: 452 8260 target.c:2460 target_read_buffer(): reading buffer of 4096 byte at 0x08039000
Debug: 453 8381 target.c:2460 target_read_buffer(): reading buffer of 4096 byte at 0x0803a000
Debug: 454 8504 target.c:2460 target_read_buffer(): reading buffer of 4096 byte at 0x0803b000
Debug: 455 8629 target.c:2460 target_read_buffer(): reading buffer of 4096 byte at 0x0803c000
Debug: 456 8753 target.c:2460 target_read_buffer(): reading buffer of 4096 byte at 0x0803d000
Debug: 457 8881 target.c:2460 target_read_buffer(): reading buffer of 4096 byte at 0x0803e000
Debug: 458 9004 target.c:2460 target_read_buffer(): reading buffer of 4096 byte at 0x0803f000
Debug: 459 9162 target.c:2460 target_read_buffer(): reading buffer of 4096 byte at 0x08040000
Debug: 460 9288 target.c:2460 target_read_buffer(): reading buffer of 4096 byte at 0x08041000
Debug: 461 9411 target.c:2460 target_read_buffer(): reading buffer of 4096 byte at 0x08042000
Debug: 462 9548 target.c:2460 target_read_buffer(): reading buffer of 4096 byte at 0x08043000
Debug: 463 9675 target.c:2460 target_read_buffer(): reading buffer of 4096 byte at 0x08044000
Debug: 464 9804 target.c:2460 target_read_buffer(): reading buffer of 4096 byte at 0x08045000
Debug: 465 9941 target.c:2460 target_read_buffer(): reading buffer of 4096 byte at 0x08046000
Debug: 466 10200 target.c:2460 target_read_buffer(): reading buffer of 4096 byte at 0x08047000
Debug: 467 10449 target.c:2460 target_read_buffer(): reading buffer of 4096 byte at 0x08048000
Debug: 468 10667 target.c:2460 target_read_buffer(): reading buffer of 4096 byte at 0x08049000
Debug: 469 10889 target.c:2460 target_read_buffer(): reading buffer of 4096 byte at 0x0804a000
Debug: 470 11125 target.c:2460 target_read_buffer(): reading buffer of 4096 byte at 0x0804b000
Debug: 471 11325 target.c:2460 target_read_buffer(): reading buffer of 4096 byte at 0x0804c000
Debug: 472 11496 target.c:2460 target_read_buffer(): reading buffer of 4096 byte at 0x0804d000
Debug: 473 11673 target.c:2460 target_read_buffer(): reading buffer of 4096 byte at 0x0804e000
Debug: 474 11981 target.c:2460 target_read_buffer(): reading buffer of 4096 byte at 0x0804f000
Debug: 475 12301 target.c:2460 target_read_buffer(): reading buffer of 4096 byte at 0x08050000
Debug: 476 12573 target.c:2460 target_read_buffer(): reading buffer of 4096 byte at 0x08051000
Debug: 477 12844 target.c:2460 target_read_buffer(): reading buffer of 4096 byte at 0x08052000
Debug: 478 13093 target.c:2460 target_read_buffer(): reading buffer of 4096 byte at 0x08053000
Debug: 479 13346 target.c:2460 target_read_buffer(): reading buffer of 4096 byte at 0x08054000
Debug: 480 13616 target.c:2460 target_read_buffer(): reading buffer of 4096 byte at 0x08055000
Debug: 481 13877 target.c:2460 target_read_buffer(): reading buffer of 4096 byte at 0x08056000
Debug: 482 14121 target.c:2460 target_read_buffer(): reading buffer of 4096 byte at 0x08057000
Debug: 483 14388 target.c:2460 target_read_buffer(): reading buffer of 4096 byte at 0x08058000
Debug: 484 14620 target.c:2460 target_read_buffer(): reading buffer of 4096 byte at 0x08059000
Debug: 485 14891 target.c:2460 target_read_buffer(): reading buffer of 4096 byte at 0x0805a000
Debug: 486 15086 target.c:2460 target_read_buffer(): reading buffer of 4096 byte at 0x0805b000
Debug: 487 15310 target.c:2460 target_read_buffer(): reading buffer of 4096 byte at 0x0805c000
Debug: 488 15530 target.c:2460 target_read_buffer(): reading buffer of 4096 byte at 0x0805d000
Debug: 489 15748 target.c:2460 target_read_buffer(): reading buffer of 4096 byte at 0x0805e000
Debug: 490 15964 target.c:2460 target_read_buffer(): reading buffer of 4096 byte at 0x0805f000
Debug: 491 16138 target.c:2460 target_read_buffer(): reading buffer of 4096 byte at 0x08060000
Debug: 492 16381 target.c:2460 target_read_buffer(): reading buffer of 4096 byte at 0x08061000
Debug: 493 16599 target.c:2460 target_read_buffer(): reading buffer of 4096 byte at 0x08062000
Debug: 494 16877 target.c:2460 target_read_buffer(): reading buffer of 4096 byte at 0x08063000
Debug: 495 17118 target.c:2460 target_read_buffer(): reading buffer of 4096 byte at 0x08064000
Debug: 496 17370 target.c:2460 target_read_buffer(): reading buffer of 4096 byte at 0x08065000
Debug: 497 17625 target.c:2460 target_read_buffer(): reading buffer of 4096 byte at 0x08066000
Debug: 498 17840 target.c:2460 target_read_buffer(): reading buffer of 4096 byte at 0x08067000
Debug: 499 18128 target.c:2460 target_read_buffer(): reading buffer of 4096 byte at 0x08068000
Debug: 500 18350 target.c:2460 target_read_buffer(): reading buffer of 4096 byte at 0x08069000
Debug: 501 18562 target.c:2460 target_read_buffer(): reading buffer of 4096 byte at 0x0806a000
Debug: 502 18766 target.c:2460 target_read_buffer(): reading buffer of 4096 byte at 0x0806b000
Debug: 503 18974 target.c:2460 target_read_buffer(): reading buffer of 4096 byte at 0x0806c000
Debug: 504 19161 target.c:2460 target_read_buffer(): reading buffer of 4096 byte at 0x0806d000
Debug: 505 19430 target.c:2460 target_read_buffer(): reading buffer of 4096 byte at 0x0806e000
Debug: 506 19685 target.c:2460 target_read_buffer(): reading buffer of 4096 byte at 0x0806f000
Debug: 507 19916 target.c:2460 target_read_buffer(): reading buffer of 4096 byte at 0x08070000
Debug: 508 20173 target.c:2460 target_read_buffer(): reading buffer of 4096 byte at 0x08071000
Debug: 509 20419 target.c:2460 target_read_buffer(): reading buffer of 4096 byte at 0x08072000
Debug: 510 20690 target.c:2460 target_read_buffer(): reading buffer of 4096 byte at 0x08073000
Debug: 511 20902 target.c:2460 target_read_buffer(): reading buffer of 4096 byte at 0x08074000
Debug: 512 21066 target.c:2460 target_read_buffer(): reading buffer of 4096 byte at 0x08075000
Debug: 513 21256 target.c:2460 target_read_buffer(): reading buffer of 4096 byte at 0x08076000
Debug: 514 21454 target.c:2460 target_read_buffer(): reading buffer of 4096 byte at 0x08077000
Debug: 515 21663 target.c:2460 target_read_buffer(): reading buffer of 4096 byte at 0x08078000
Debug: 516 21826 target.c:2460 target_read_buffer(): reading buffer of 4096 byte at 0x08079000
Debug: 517 21977 target.c:2460 target_read_buffer(): reading buffer of 4096 byte at 0x0807a000
Debug: 518 22106 target.c:2460 target_read_buffer(): reading buffer of 4096 byte at 0x0807b000
Debug: 519 22235 target.c:2460 target_read_buffer(): reading buffer of 4096 byte at 0x0807c000
Debug: 520 22364 target.c:2460 target_read_buffer(): reading buffer of 4096 byte at 0x0807d000
Debug: 521 22493 target.c:2460 target_read_buffer(): reading buffer of 4096 byte at 0x0807e000
Debug: 522 22622 target.c:2460 target_read_buffer(): reading buffer of 4096 byte at 0x0807f000
User : 523 22751 options.c:52 configuration_output_handler(): dumped 524288 bytes in 22.406677s (22.850 KiB/s)User : 524 22751 options.c:52 configuration_output_handler(): 
Debug: 525 22751 command.c:86 script_debug(): command - read_memory 0x40023c14 32 1
Debug: 526 22751 log.c:419 gdb_timeout_warning(): keep_alive() was not invoked in the 1000 ms timelimit (22751 ms). This may cause trouble with GDB connections.
Debug: 527 22751 command.c:86 script_debug(): command - echo FLASH_OPTCR=0xfffaaed
User : 528 22751 command.c:607 handle_echo(): FLASH_OPTCR=0xfffaaed
Debug: 529 22751 command.c:86 script_debug(): command - read_memory 0x40023874 32 1
Debug: 530 22752 command.c:86 script_debug(): command - echo RCC_CSR=0x4000000
User : 531 22752 command.c:607 handle_echo(): RCC_CSR=0x4000000
Debug: 532 22752 command.c:86 script_debug(): command - flash erase_sector 0 0 0
Debug: 533 22752 target.c:2613 target_read_u32(): address: 0xe0042000, value: 0x10016433
Info : 534 22752 stm32f2x.c:1045 stm32x_probe(): device id = 0x10016433
Debug: 535 22752 arm_adi_v5.c:400 mem_ap_setup_transfer_verify_size_packing(): AP#0x0 probed size 2: supported
Debug: 536 22753 target.c:2637 target_read_u16(): address: 0x1fff7a22, value: 0x0200
Info : 537 22753 stm32f2x.c:1130 stm32x_probe(): flash size = 512 KiB
Debug: 538 22753 stm32f2x.c:1182 stm32x_probe(): allocated 8 sectors
Debug: 539 22753 stm32f2x.c:892 setup_sector(): sector 0: 16kBytes
Debug: 540 22753 stm32f2x.c:892 setup_sector(): sector 1: 16kBytes
Debug: 541 22753 stm32f2x.c:892 setup_sector(): sector 2: 16kBytes
Debug: 542 22753 stm32f2x.c:892 setup_sector(): sector 3: 16kBytes
Debug: 543 22753 stm32f2x.c:892 setup_sector(): sector 4: 64kBytes
Debug: 544 22753 stm32f2x.c:892 setup_sector(): sector 5: 128kBytes
Debug: 545 22753 stm32f2x.c:892 setup_sector(): sector 6: 128kBytes
Debug: 546 22753 stm32f2x.c:892 setup_sector(): sector 7: 128kBytes
Debug: 547 22753 target.c:2613 target_read_u32(): address: 0x40023c10, value: 0x80000000
Debug: 548 22753 target.c:2701 target_write_u32(): address: 0x40023c04, value: 0x45670123
Debug: 549 22753 target.c:2701 target_write_u32(): address: 0x40023c04, value: 0xcdef89ab
Debug: 550 22754 target.c:2613 target_read_u32(): address: 0x40023c10, value: 0x00000000
Debug: 551 22754 target.c:2701 target_write_u32(): address: 0x40023c10, value: 0x00010002
Debug: 552 22755 target.c:2613 target_read_u32(): address: 0x40023c0c, value: 0x00010000
Debug: 553 22755 stm32f2x.c:284 stm32x_wait_status_busy(): status: 0x10000
Debug: 554 22756 target.c:2613 target_read_u32(): address: 0x40023c0c, value: 0x00010000
Debug: 555 22756 stm32f2x.c:284 stm32x_wait_status_busy(): status: 0x10000
Debug: 556 22758 target.c:2613 target_read_u32(): address: 0x40023c0c, value: 0x00010000
Debug: 557 22758 stm32f2x.c:284 stm32x_wait_status_busy(): status: 0x10000
Debug: 558 22759 target.c:2613 target_read_u32(): address: 0x40023c0c, value: 0x00010000
Debug: 559 22759 stm32f2x.c:284 stm32x_wait_status_busy(): status: 0x10000
Debug: 560 22760 target.c:2613 target_read_u32(): address: 0x40023c0c, value: 0x00010000
Debug: 561 22760 stm32f2x.c:284 stm32x_wait_status_busy(): status: 0x10000
Debug: 562 22762 target.c:2613 target_read_u32(): address: 0x40023c0c, value: 0x00010000
Debug: 563 22762 stm32f2x.c:284 stm32x_wait_status_busy(): status: 0x10000
Debug: 564 22763 target.c:2613 target_read_u32(): address: 0x40023c0c, value: 0x00010000
Debug: 565 22763 stm32f2x.c:284 stm32x_wait_status_busy(): status: 0x10000
Debug: 566 22765 target.c:2613 target_read_u32(): address: 0x40023c0c, value: 0x00010000
Debug: 567 22765 stm32f2x.c:284 stm32x_wait_status_busy(): status: 0x10000
Debug: 568 22766 target.c:2613 target_read_u32(): address: 0x40023c0c, value: 0x00010000
Debug: 569 22766 stm32f2x.c:284 stm32x_wait_status_busy(): status: 0x10000
Debug: 570 22767 target.c:2613 target_read_u32(): address: 0x40023c0c, value: 0x00010000
Debug: 571 22767 stm32f2x.c:284 stm32x_wait_status_busy(): status: 0x10000
Debug: 572 22769 target.c:2613 target_read_u32(): address: 0x40023c0c, value: 0x00010000
Debug: 573 22769 stm32f2x.c:284 stm32x_wait_status_busy(): status: 0x10000
Debug: 574 22770 target.c:2613 target_read_u32(): address: 0x40023c0c, value: 0x00010000
Debug: 575 22770 stm32f2x.c:284 stm32x_wait_status_busy(): status: 0x10000
Debug: 576 22771 target.c:2613 target_read_u32(): address: 0x40023c0c, value: 0x00010000
Debug: 577 22771 stm32f2x.c:284 stm32x_wait_status_busy(): status: 0x10000
Debug: 578 22773 target.c:2613 target_read_u32(): address: 0x40023c0c, value: 0x00010000
Debug: 579 22773 stm32f2x.c:284 stm32x_wait_status_busy(): status: 0x10000
Debug: 580 22774 target.c:2613 target_read_u32(): address: 0x40023c0c, value: 0x00010000
Debug: 581 22774 stm32f2x.c:284 stm32x_wait_status_busy(): status: 0x10000
Debug: 582 22776 target.c:2613 target_read_u32(): address: 0x40023c0c, value: 0x00010000
Debug: 583 22776 stm32f2x.c:284 stm32x_wait_status_busy(): status: 0x10000
Debug: 584 22777 target.c:2613 target_read_u32(): address: 0x40023c0c, value: 0x00010000
Debug: 585 22777 stm32f2x.c:284 stm32x_wait_status_busy(): status: 0x10000
Debug: 586 22778 target.c:2613 target_read_u32(): address: 0x40023c0c, value: 0x00010000
Debug: 587 22778 stm32f2x.c:284 stm32x_wait_status_busy(): status: 0x10000
Debug: 588 22780 target.c:2613 target_read_u32(): address: 0x40023c0c, value: 0x00010000
Debug: 589 22780 stm32f2x.c:284 stm32x_wait_status_busy(): status: 0x10000
Debug: 590 22781 target.c:2613 target_read_u32(): address: 0x40023c0c, value: 0x00010000
Debug: 591 22781 stm32f2x.c:284 stm32x_wait_status_busy(): status: 0x10000
Debug: 592 22783 target.c:2613 target_read_u32(): address: 0x40023c0c, value: 0x00010000
Debug: 593 22783 stm32f2x.c:284 stm32x_wait_status_busy(): status: 0x10000
Debug: 594 22784 target.c:2613 target_read_u32(): address: 0x40023c0c, value: 0x00010000
Debug: 595 22784 stm32f2x.c:284 stm32x_wait_status_busy(): status: 0x10000
Debug: 596 22785 target.c:2613 target_read_u32(): address: 0x40023c0c, value: 0x00010000
Debug: 597 22785 stm32f2x.c:284 stm32x_wait_status_busy(): status: 0x10000
Debug: 598 22787 target.c:2613 target_read_u32(): address: 0x40023c0c, value: 0x00010000
Debug: 599 22787 stm32f2x.c:284 stm32x_wait_status_busy(): status: 0x10000
Debug: 600 22788 target.c:2613 target_read_u32(): address: 0x40023c0c, value: 0x00010000
Debug: 601 22788 stm32f2x.c:284 stm32x_wait_status_busy(): status: 0x10000
Debug: 602 22789 target.c:2613 target_read_u32(): address: 0x40023c0c, value: 0x00010000
Debug: 603 22789 stm32f2x.c:284 stm32x_wait_status_busy(): status: 0x10000
Debug: 604 22791 target.c:2613 target_read_u32(): address: 0x40023c0c, value: 0x00010000
Debug: 605 22791 stm32f2x.c:284 stm32x_wait_status_busy(): status: 0x10000
Debug: 606 22792 target.c:2613 target_read_u32(): address: 0x40023c0c, value: 0x00010000
Debug: 607 22792 stm32f2x.c:284 stm32x_wait_status_busy(): status: 0x10000
Debug: 608 22793 target.c:2613 target_read_u32(): address: 0x40023c0c, value: 0x00010000
Debug: 609 22793 stm32f2x.c:284 stm32x_wait_status_busy(): status: 0x10000
Debug: 610 22795 target.c:2613 target_read_u32(): address: 0x40023c0c, value: 0x00010000
Debug: 611 22795 stm32f2x.c:284 stm32x_wait_status_busy(): status: 0x10000
Debug: 612 22796 target.c:2613 target_read_u32(): address: 0x40023c0c, value: 0x00010000
Debug: 613 22796 stm32f2x.c:284 stm32x_wait_status_busy(): status: 0x10000
Debug: 614 22798 target.c:2613 target_read_u32(): address: 0x40023c0c, value: 0x00010000
Debug: 615 22798 stm32f2x.c:284 stm32x_wait_status_busy(): status: 0x10000
Debug: 616 22799 target.c:2613 target_read_u32(): address: 0x40023c0c, value: 0x00010000
Debug: 617 22799 stm32f2x.c:284 stm32x_wait_status_busy(): status: 0x10000
Debug: 618 22800 target.c:2613 target_read_u32(): address: 0x40023c0c, value: 0x00010000
Debug: 619 22800 stm32f2x.c:284 stm32x_wait_status_busy(): status: 0x10000
Debug: 620 22802 target.c:2613 target_read_u32(): address: 0x40023c0c, value: 0x00010000
Debug: 621 22802 stm32f2x.c:284 stm32x_wait_status_busy(): status: 0x10000
Debug: 622 22803 target.c:2613 target_read_u32(): address: 0x40023c0c, value: 0x00010000
Debug: 623 22803 stm32f2x.c:284 stm32x_wait_status_busy(): status: 0x10000
Debug: 624 22804 target.c:2613 target_read_u32(): address: 0x40023c0c, value: 0x00010000
Debug: 625 22804 stm32f2x.c:284 stm32x_wait_status_busy(): status: 0x10000
Debug: 626 22806 target.c:2613 target_read_u32(): address: 0x40023c0c, value: 0x00010000
Debug: 627 22806 stm32f2x.c:284 stm32x_wait_status_busy(): status: 0x10000
Debug: 628 22807 target.c:2613 target_read_u32(): address: 0x40023c0c, value: 0x00010000
Debug: 629 22807 stm32f2x.c:284 stm32x_wait_status_busy(): status: 0x10000
Debug: 630 22809 target.c:2613 target_read_u32(): address: 0x40023c0c, value: 0x00010000
Debug: 631 22809 stm32f2x.c:284 stm32x_wait_status_busy(): status: 0x10000
Debug: 632 22810 target.c:2613 target_read_u32(): address: 0x40023c0c, value: 0x00010000
Debug: 633 22810 stm32f2x.c:284 stm32x_wait_status_busy(): status: 0x10000
Debug: 634 22811 target.c:2613 target_read_u32(): address: 0x40023c0c, value: 0x00010000
Debug: 635 22811 stm32f2x.c:284 stm32x_wait_status_busy(): status: 0x10000
Debug: 636 22813 target.c:2613 target_read_u32(): address: 0x40023c0c, value: 0x00010000
Debug: 637 22813 stm32f2x.c:284 stm32x_wait_status_busy(): status: 0x10000
Debug: 638 22814 target.c:2613 target_read_u32(): address: 0x40023c0c, value: 0x00010000
Debug: 639 22814 stm32f2x.c:284 stm32x_wait_status_busy(): status: 0x10000
Debug: 640 22816 target.c:2613 target_read_u32(): address: 0x40023c0c, value: 0x00010000
Debug: 641 22816 stm32f2x.c:284 stm32x_wait_status_busy(): status: 0x10000
Debug: 642 22817 target.c:2613 target_read_u32(): address: 0x40023c0c, value: 0x00010000
Debug: 643 22817 stm32f2x.c:284 stm32x_wait_status_busy(): status: 0x10000
Debug: 644 22818 target.c:2613 target_read_u32(): address: 0x40023c0c, value: 0x00010000
Debug: 645 22818 stm32f2x.c:284 stm32x_wait_status_busy(): status: 0x10000
Debug: 646 22820 target.c:2613 target_read_u32(): address: 0x40023c0c, value: 0x00010000
Debug: 647 22820 stm32f2x.c:284 stm32x_wait_status_busy(): status: 0x10000
Debug: 648 22821 target.c:2613 target_read_u32(): address: 0x40023c0c, value: 0x00010000
Debug: 649 22821 stm32f2x.c:284 stm32x_wait_status_busy(): status: 0x10000
Debug: 650 22822 target.c:2613 target_read_u32(): address: 0x40023c0c, value: 0x00010000
Debug: 651 22822 stm32f2x.c:284 stm32x_wait_status_busy(): status: 0x10000
Debug: 652 22824 target.c:2613 target_read_u32(): address: 0x40023c0c, value: 0x00010000
Debug: 653 22824 stm32f2x.c:284 stm32x_wait_status_busy(): status: 0x10000
Debug: 654 22825 target.c:2613 target_read_u32(): address: 0x40023c0c, value: 0x00010000
Debug: 655 22825 stm32f2x.c:284 stm32x_wait_status_busy(): status: 0x10000
Debug: 656 22827 target.c:2613 target_read_u32(): address: 0x40023c0c, value: 0x00010000
Debug: 657 22827 stm32f2x.c:284 stm32x_wait_status_busy(): status: 0x10000
Debug: 658 22828 target.c:2613 target_read_u32(): address: 0x40023c0c, value: 0x00010000
Debug: 659 22828 stm32f2x.c:284 stm32x_wait_status_busy(): status: 0x10000
Debug: 660 22829 target.c:2613 target_read_u32(): address: 0x40023c0c, value: 0x00010000
Debug: 661 22829 stm32f2x.c:284 stm32x_wait_status_busy(): status: 0x10000
Debug: 662 22831 target.c:2613 target_read_u32(): address: 0x40023c0c, value: 0x00010000
Debug: 663 22831 stm32f2x.c:284 stm32x_wait_status_busy(): status: 0x10000
Debug: 664 22832 target.c:2613 target_read_u32(): address: 0x40023c0c, value: 0x00010000
Debug: 665 22832 stm32f2x.c:284 stm32x_wait_status_busy(): status: 0x10000
Debug: 666 22833 target.c:2613 target_read_u32(): address: 0x40023c0c, value: 0x00010000
Debug: 667 22833 stm32f2x.c:284 stm32x_wait_status_busy(): status: 0x10000
Debug: 668 22835 target.c:2613 target_read_u32(): address: 0x40023c0c, value: 0x00010000
Debug: 669 22835 stm32f2x.c:284 stm32x_wait_status_busy(): status: 0x10000
Debug: 670 22836 target.c:2613 target_read_u32(): address: 0x40023c0c, value: 0x00010000
Debug: 671 22836 stm32f2x.c:284 stm32x_wait_status_busy(): status: 0x10000
Debug: 672 22838 target.c:2613 target_read_u32(): address: 0x40023c0c, value: 0x00010000
Debug: 673 22838 stm32f2x.c:284 stm32x_wait_status_busy(): status: 0x10000
Debug: 674 22839 target.c:2613 target_read_u32(): address: 0x40023c0c, value: 0x00010000
Debug: 675 22839 stm32f2x.c:284 stm32x_wait_status_busy(): status: 0x10000
Debug: 676 22840 target.c:2613 target_read_u32(): address: 0x40023c0c, value: 0x00010000
Debug: 677 22840 stm32f2x.c:284 stm32x_wait_status_busy(): status: 0x10000
Debug: 678 22842 target.c:2613 target_read_u32(): address: 0x40023c0c, value: 0x00010000
Debug: 679 22842 stm32f2x.c:284 stm32x_wait_status_busy(): status: 0x10000
Debug: 680 22843 target.c:2613 target_read_u32(): address: 0x40023c0c, value: 0x00010000
Debug: 681 22843 stm32f2x.c:284 stm32x_wait_status_busy(): status: 0x10000
Debug: 682 22844 target.c:2613 target_read_u32(): address: 0x40023c0c, value: 0x00010000
Debug: 683 22844 stm32f2x.c:284 stm32x_wait_status_busy(): status: 0x10000
Debug: 684 22846 target.c:2613 target_read_u32(): address: 0x40023c0c, value: 0x00010000
Debug: 685 22846 stm32f2x.c:284 stm32x_wait_status_busy(): status: 0x10000
Debug: 686 22847 target.c:2613 target_read_u32(): address: 0x40023c0c, value: 0x00010000
Debug: 687 22847 stm32f2x.c:284 stm32x_wait_status_busy(): status: 0x10000
Debug: 688 22849 target.c:2613 target_read_u32(): address: 0x40023c0c, value: 0x00010000
Debug: 689 22849 stm32f2x.c:284 stm32x_wait_status_busy(): status: 0x10000
Debug: 690 22850 target.c:2613 target_read_u32(): address: 0x40023c0c, value: 0x00010000
Debug: 691 22850 stm32f2x.c:284 stm32x_wait_status_busy(): status: 0x10000
Debug: 692 22851 target.c:2613 target_read_u32(): address: 0x40023c0c, value: 0x00010000
Debug: 693 22851 stm32f2x.c:284 stm32x_wait_status_busy(): status: 0x10000
Debug: 694 22853 target.c:2613 target_read_u32(): address: 0x40023c0c, value: 0x00010000
Debug: 695 22853 stm32f2x.c:284 stm32x_wait_status_busy(): status: 0x10000
Debug: 696 22854 target.c:2613 target_read_u32(): address: 0x40023c0c, value: 0x00010000
Debug: 697 22854 stm32f2x.c:284 stm32x_wait_status_busy(): status: 0x10000
Debug: 698 22855 target.c:2613 target_read_u32(): address: 0x40023c0c, value: 0x00010000
Debug: 699 22855 stm32f2x.c:284 stm32x_wait_status_busy(): status: 0x10000
Debug: 700 22857 target.c:2613 target_read_u32(): address: 0x40023c0c, value: 0x00010000
Debug: 701 22857 stm32f2x.c:284 stm32x_wait_status_busy(): status: 0x10000
Debug: 702 22858 target.c:2613 target_read_u32(): address: 0x40023c0c, value: 0x00010000
Debug: 703 22858 stm32f2x.c:284 stm32x_wait_status_busy(): status: 0x10000
Debug: 704 22860 target.c:2613 target_read_u32(): address: 0x40023c0c, value: 0x00010000
Debug: 705 22860 stm32f2x.c:284 stm32x_wait_status_busy(): status: 0x10000
Debug: 706 22861 target.c:2613 target_read_u32(): address: 0x40023c0c, value: 0x00010000
Debug: 707 22861 stm32f2x.c:284 stm32x_wait_status_busy(): status: 0x10000
Debug: 708 22862 target.c:2613 target_read_u32(): address: 0x40023c0c, value: 0x00010000
Debug: 709 22862 stm32f2x.c:284 stm32x_wait_status_busy(): status: 0x10000
Debug: 710 22864 target.c:2613 target_read_u32(): address: 0x40023c0c, value: 0x00010000
Debug: 711 22864 stm32f2x.c:284 stm32x_wait_status_busy(): status: 0x10000
Debug: 712 22865 target.c:2613 target_read_u32(): address: 0x40023c0c, value: 0x00010000
Debug: 713 22865 stm32f2x.c:284 stm32x_wait_status_busy(): status: 0x10000
Debug: 714 22866 target.c:2613 target_read_u32(): address: 0x40023c0c, value: 0x00010000
Debug: 715 22866 stm32f2x.c:284 stm32x_wait_status_busy(): status: 0x10000
Debug: 716 22868 target.c:2613 target_read_u32(): address: 0x40023c0c, value: 0x00010000
Debug: 717 22868 stm32f2x.c:284 stm32x_wait_status_busy(): status: 0x10000
Debug: 718 22869 target.c:2613 target_read_u32(): address: 0x40023c0c, value: 0x00010000
Debug: 719 22869 stm32f2x.c:284 stm32x_wait_status_busy(): status: 0x10000
Debug: 720 22870 target.c:2613 target_read_u32(): address: 0x40023c0c, value: 0x00010000
Debug: 721 22870 stm32f2x.c:284 stm32x_wait_status_busy(): status: 0x10000
Debug: 722 22872 target.c:2613 target_read_u32(): address: 0x40023c0c, value: 0x00010000
Debug: 723 22872 stm32f2x.c:284 stm32x_wait_status_busy(): status: 0x10000
Debug: 724 22873 target.c:2613 target_read_u32(): address: 0x40023c0c, value: 0x00010000
Debug: 725 22873 stm32f2x.c:284 stm32x_wait_status_busy(): status: 0x10000
Debug: 726 22875 target.c:2613 target_read_u32(): address: 0x40023c0c, value: 0x00010000
Debug: 727 22875 stm32f2x.c:284 stm32x_wait_status_busy(): status: 0x10000
Debug: 728 22876 target.c:2613 target_read_u32(): address: 0x40023c0c, value: 0x00010000
Debug: 729 22876 stm32f2x.c:284 stm32x_wait_status_busy(): status: 0x10000
Debug: 730 22877 target.c:2613 target_read_u32(): address: 0x40023c0c, value: 0x00010000
Debug: 731 22877 stm32f2x.c:284 stm32x_wait_status_busy(): status: 0x10000
Debug: 732 22879 target.c:2613 target_read_u32(): address: 0x40023c0c, value: 0x00010000
Debug: 733 22879 stm32f2x.c:284 stm32x_wait_status_busy(): status: 0x10000
Debug: 734 22880 target.c:2613 target_read_u32(): address: 0x40023c0c, value: 0x00010000
Debug: 735 22880 stm32f2x.c:284 stm32x_wait_status_busy(): status: 0x10000
Debug: 736 22881 target.c:2613 target_read_u32(): address: 0x40023c0c, value: 0x00010000
Debug: 737 22881 stm32f2x.c:284 stm32x_wait_status_busy(): status: 0x10000
Debug: 738 22883 target.c:2613 target_read_u32(): address: 0x40023c0c, value: 0x00010000
Debug: 739 22883 stm32f2x.c:284 stm32x_wait_status_busy(): status: 0x10000
Debug: 740 22884 target.c:2613 target_read_u32(): address: 0x40023c0c, value: 0x00010000
Debug: 741 22884 stm32f2x.c:284 stm32x_wait_status_busy(): status: 0x10000
Debug: 742 22885 target.c:2613 target_read_u32(): address: 0x40023c0c, value: 0x00010000
Debug: 743 22885 stm32f2x.c:284 stm32x_wait_status_busy(): status: 0x10000
Debug: 744 22887 target.c:2613 target_read_u32(): address: 0x40023c0c, value: 0x00010000
Debug: 745 22887 stm32f2x.c:284 stm32x_wait_status_busy(): status: 0x10000
Debug: 746 22888 target.c:2613 target_read_u32(): address: 0x40023c0c, value: 0x00010000
Debug: 747 22888 stm32f2x.c:284 stm32x_wait_status_busy(): status: 0x10000
Debug: 748 22890 target.c:2613 target_read_u32(): address: 0x40023c0c, value: 0x00010000
Debug: 749 22890 stm32f2x.c:284 stm32x_wait_status_busy(): status: 0x10000
Debug: 750 22891 target.c:2613 target_read_u32(): address: 0x40023c0c, value: 0x00010000
Debug: 751 22891 stm32f2x.c:284 stm32x_wait_status_busy(): status: 0x10000
Debug: 752 22892 target.c:2613 target_read_u32(): address: 0x40023c0c, value: 0x00010000
Debug: 753 22892 stm32f2x.c:284 stm32x_wait_status_busy(): status: 0x10000
Debug: 754 22894 target.c:2613 target_read_u32(): address: 0x40023c0c, value: 0x00010000
Debug: 755 22894 stm32f2x.c:284 stm32x_wait_status_busy(): status: 0x10000
Debug: 756 22895 target.c:2613 target_read_u32(): address: 0x40023c0c, value: 0x00010000
Debug: 757 22895 stm32f2x.c:284 stm32x_wait_status_busy(): status: 0x10000
Debug: 758 22897 target.c:2613 target_read_u32(): address: 0x40023c0c, value: 0x00010000
Debug: 759 22897 stm32f2x.c:284 stm32x_wait_status_busy(): status: 0x10000
Debug: 760 22898 target.c:2613 target_read_u32(): address: 0x40023c0c, value: 0x00010000
Debug: 761 22898 stm32f2x.c:284 stm32x_wait_status_busy(): status: 0x10000
Debug: 762 22899 target.c:2613 target_read_u32(): address: 0x40023c0c, value: 0x00010000
Debug: 763 22899 stm32f2x.c:284 stm32x_wait_status_busy(): status: 0x10000
Debug: 764 22901 target.c:2613 target_read_u32(): address: 0x40023c0c, value: 0x00010000
Debug: 765 22901 stm32f2x.c:284 stm32x_wait_status_busy(): status: 0x10000
Debug: 766 22902 target.c:2613 target_read_u32(): address: 0x40023c0c, value: 0x00010000
Debug: 767 22902 stm32f2x.c:284 stm32x_wait_status_busy(): status: 0x10000
Debug: 768 22903 target.c:2613 target_read_u32(): address: 0x40023c0c, value: 0x00010000
Debug: 769 22903 stm32f2x.c:284 stm32x_wait_status_busy(): status: 0x10000
Debug: 770 22905 target.c:2613 target_read_u32(): address: 0x40023c0c, value: 0x00010000
Debug: 771 22905 stm32f2x.c:284 stm32x_wait_status_busy(): status: 0x10000
Debug: 772 22906 target.c:2613 target_read_u32(): address: 0x40023c0c, value: 0x00010000
Debug: 773 22906 stm32f2x.c:284 stm32x_wait_status_busy(): status: 0x10000
Debug: 774 22907 target.c:2613 target_read_u32(): address: 0x40023c0c, value: 0x00010000
Debug: 775 22907 stm32f2x.c:284 stm32x_wait_status_busy(): status: 0x10000
Debug: 776 22909 target.c:2613 target_read_u32(): address: 0x40023c0c, value: 0x00010000
Debug: 777 22909 stm32f2x.c:284 stm32x_wait_status_busy(): status: 0x10000
Debug: 778 22910 target.c:2613 target_read_u32(): address: 0x40023c0c, value: 0x00010000
Debug: 779 22910 stm32f2x.c:284 stm32x_wait_status_busy(): status: 0x10000
Debug: 780 22912 target.c:2613 target_read_u32(): address: 0x40023c0c, value: 0x00010000
Debug: 781 22912 stm32f2x.c:284 stm32x_wait_status_busy(): status: 0x10000
Debug: 782 22913 target.c:2613 target_read_u32(): address: 0x40023c0c, value: 0x00010000
Debug: 783 22913 stm32f2x.c:284 stm32x_wait_status_busy(): status: 0x10000
Debug: 784 22914 target.c:2613 target_read_u32(): address: 0x40023c0c, value: 0x00010000
Debug: 785 22914 stm32f2x.c:284 stm32x_wait_status_busy(): status: 0x10000
Debug: 786 22916 target.c:2613 target_read_u32(): address: 0x40023c0c, value: 0x00010000
Debug: 787 22916 stm32f2x.c:284 stm32x_wait_status_busy(): status: 0x10000
Debug: 788 22917 target.c:2613 target_read_u32(): address: 0x40023c0c, value: 0x00010000
Debug: 789 22917 stm32f2x.c:284 stm32x_wait_status_busy(): status: 0x10000
Debug: 790 22919 target.c:2613 target_read_u32(): address: 0x40023c0c, value: 0x00010000
Debug: 791 22919 stm32f2x.c:284 stm32x_wait_status_busy(): status: 0x10000
Debug: 792 22920 target.c:2613 target_read_u32(): address: 0x40023c0c, value: 0x00010000
Debug: 793 22920 stm32f2x.c:284 stm32x_wait_status_busy(): status: 0x10000
Debug: 794 22921 target.c:2613 target_read_u32(): address: 0x40023c0c, value: 0x00010000
Debug: 795 22921 stm32f2x.c:284 stm32x_wait_status_busy(): status: 0x10000
Debug: 796 22923 target.c:2613 target_read_u32(): address: 0x40023c0c, value: 0x00010000
Debug: 797 22923 stm32f2x.c:284 stm32x_wait_status_busy(): status: 0x10000
Debug: 798 22925 target.c:2613 target_read_u32(): address: 0x40023c0c, value: 0x00010000
Debug: 799 22925 stm32f2x.c:284 stm32x_wait_status_busy(): status: 0x10000
Debug: 800 22927 target.c:2613 target_read_u32(): address: 0x40023c0c, value: 0x00010000
Debug: 801 22927 stm32f2x.c:284 stm32x_wait_status_busy(): status: 0x10000
Debug: 802 22928 target.c:2613 target_read_u32(): address: 0x40023c0c, value: 0x00010000
Debug: 803 22928 stm32f2x.c:284 stm32x_wait_status_busy(): status: 0x10000
Debug: 804 22929 target.c:2613 target_read_u32(): address: 0x40023c0c, value: 0x00010000
Debug: 805 22929 stm32f2x.c:284 stm32x_wait_status_busy(): status: 0x10000
Debug: 806 22931 target.c:2613 target_read_u32(): address: 0x40023c0c, value: 0x00010000
Debug: 807 22931 stm32f2x.c:284 stm32x_wait_status_busy(): status: 0x10000
Debug: 808 22932 target.c:2613 target_read_u32(): address: 0x40023c0c, value: 0x00010000
Debug: 809 22932 stm32f2x.c:284 stm32x_wait_status_busy(): status: 0x10000
Debug: 810 22933 target.c:2613 target_read_u32(): address: 0x40023c0c, value: 0x00010000
Debug: 811 22933 stm32f2x.c:284 stm32x_wait_status_busy(): status: 0x10000
Debug: 812 22935 target.c:2613 target_read_u32(): address: 0x40023c0c, value: 0x00010000
Debug: 813 22935 stm32f2x.c:284 stm32x_wait_status_busy(): status: 0x10000
Debug: 814 22936 target.c:2613 target_read_u32(): address: 0x40023c0c, value: 0x00010000
Debug: 815 22936 stm32f2x.c:284 stm32x_wait_status_busy(): status: 0x10000
Debug: 816 22937 target.c:2613 target_read_u32(): address: 0x40023c0c, value: 0x00010000
Debug: 817 22937 stm32f2x.c:284 stm32x_wait_status_busy(): status: 0x10000
Debug: 818 22939 target.c:2613 target_read_u32(): address: 0x40023c0c, value: 0x00010000
Debug: 819 22939 stm32f2x.c:284 stm32x_wait_status_busy(): status: 0x10000
Debug: 820 22940 target.c:2613 target_read_u32(): address: 0x40023c0c, value: 0x00010000
Debug: 821 22940 stm32f2x.c:284 stm32x_wait_status_busy(): status: 0x10000
Debug: 822 22942 target.c:2613 target_read_u32(): address: 0x40023c0c, value: 0x00010000
Debug: 823 22942 stm32f2x.c:284 stm32x_wait_status_busy(): status: 0x10000
Debug: 824 22943 target.c:2613 target_read_u32(): address: 0x40023c0c, value: 0x00010000
Debug: 825 22943 stm32f2x.c:284 stm32x_wait_status_busy(): status: 0x10000
Debug: 826 22944 target.c:2613 target_read_u32(): address: 0x40023c0c, value: 0x00010000
Debug: 827 22944 stm32f2x.c:284 stm32x_wait_status_busy(): status: 0x10000
Debug: 828 22946 target.c:2613 target_read_u32(): address: 0x40023c0c, value: 0x00010000
Debug: 829 22946 stm32f2x.c:284 stm32x_wait_status_busy(): status: 0x10000
Debug: 830 22947 target.c:2613 target_read_u32(): address: 0x40023c0c, value: 0x00010000
Debug: 831 22947 stm32f2x.c:284 stm32x_wait_status_busy(): status: 0x10000
Debug: 832 22948 target.c:2613 target_read_u32(): address: 0x40023c0c, value: 0x00010000
